!Agilent Technologies,E5071C,MY46417555,A.11.08
!Date: Wed Apr 16 11:27:38 2014
!Data & Calibration Information:
!Freq	S11:SOLT4(ON)	S21:SOLT4(ON)	S12:SOLT4(ON)	S22:SOLT4(ON)
!PortZ  Port1:50+j0    Port2:50+j0
!Above PortZ is port z conversion or system Z0 setting when saving the data.
!When reading, reference impedance value at option line is always used.
# Hz S dB R 50
275000000	-1.276459e+001	-8.508040e+001	-9.498216e-001	-2.926864e+001	-8.953813e-001	-2.783896e+001	-1.218507e+001	-1.743763e+002
275250000	-1.279668e+001	-8.586501e+001	-9.514302e-001	-2.967975e+001	-8.907109e-001	-2.824548e+001	-1.221337e+001	-1.747001e+002
275500000	-1.283919e+001	-8.655353e+001	-9.515955e-001	-3.009803e+001	-8.885792e-001	-2.868809e+001	-1.225419e+001	-1.748517e+002
275750000	-1.289554e+001	-8.733580e+001	-9.512306e-001	-3.053424e+001	-8.840846e-001	-2.911286e+001	-1.227555e+001	-1.750532e+002
276000000	-1.294193e+001	-8.801712e+001	-9.499072e-001	-3.094109e+001	-8.796649e-001	-2.954476e+001	-1.232071e+001	-1.753100e+002
276250000	-1.300861e+001	-8.871011e+001	-9.441923e-001	-3.136496e+001	-8.775708e-001	-2.997477e+001	-1.234802e+001	-1.755170e+002
276500000	-1.304782e+001	-8.937232e+001	-9.412067e-001	-3.183097e+001	-8.744402e-001	-3.044103e+001	-1.238465e+001	-1.757086e+002
276750000	-1.310347e+001	-9.000263e+001	-9.395617e-001	-3.221735e+001	-8.717440e-001	-3.088084e+001	-1.241457e+001	-1.758905e+002
277000000	-1.316881e+001	-9.085200e+001	-9.379009e-001	-3.263176e+001	-8.656735e-001	-3.129228e+001	-1.245165e+001	-1.761238e+002
277250000	-1.322237e+001	-9.149672e+001	-9.333753e-001	-3.306739e+001	-8.632922e-001	-3.173245e+001	-1.247737e+001	-1.764519e+002
277500000	-1.325976e+001	-9.234013e+001	-9.335974e-001	-3.345786e+001	-8.631771e-001	-3.217642e+001	-1.252192e+001	-1.764711e+002
277750000	-1.333910e+001	-9.312858e+001	-9.311786e-001	-3.388971e+001	-8.570555e-001	-3.260668e+001	-1.257394e+001	-1.768496e+002
278000000	-1.338616e+001	-9.388415e+001	-9.303264e-001	-3.433230e+001	-8.534998e-001	-3.301570e+001	-1.259315e+001	-1.771038e+002
278250000	-1.342548e+001	-9.453451e+001	-9.277758e-001	-3.472729e+001	-8.509383e-001	-3.347941e+001	-1.263104e+001	-1.771739e+002
278500000	-1.348249e+001	-9.541480e+001	-9.261645e-001	-3.514720e+001	-8.454849e-001	-3.389475e+001	-1.267255e+001	-1.775481e+002
278750000	-1.353210e+001	-9.607531e+001	-9.217643e-001	-3.559354e+001	-8.411317e-001	-3.434950e+001	-1.273173e+001	-1.775742e+002
279000000	-1.358802e+001	-9.697677e+001	-9.198545e-001	-3.598904e+001	-8.403956e-001	-3.476921e+001	-1.273897e+001	-1.777507e+002
279250000	-1.366891e+001	-9.780862e+001	-9.199542e-001	-3.640347e+001	-8.400357e-001	-3.522887e+001	-1.277401e+001	-1.780372e+002
279500000	-1.369693e+001	-9.857690e+001	-9.174515e-001	-3.684361e+001	-8.336990e-001	-3.565579e+001	-1.282423e+001	-1.782090e+002
279750000	-1.375370e+001	-9.941244e+001	-9.156655e-001	-3.726505e+001	-8.291226e-001	-3.608111e+001	-1.287028e+001	-1.783553e+002
280000000	-1.383312e+001	-1.000161e+002	-9.081369e-001	-3.769181e+001	-8.325224e-001	-3.653600e+001	-1.288505e+001	-1.785857e+002
280250000	-1.387119e+001	-1.010035e+002	-9.098857e-001	-3.811973e+001	-8.225548e-001	-3.697836e+001	-1.294271e+001	-1.785579e+002
280500000	-1.393634e+001	-1.018874e+002	-9.067999e-001	-3.852235e+001	-8.206112e-001	-3.737885e+001	-1.298168e+001	-1.789201e+002
280750000	-1.399819e+001	-1.025701e+002	-9.039963e-001	-3.894633e+001	-8.196193e-001	-3.783984e+001	-1.302763e+001	-1.790291e+002
281000000	-1.406788e+001	-1.035157e+002	-8.998658e-001	-3.939558e+001	-8.177473e-001	-3.827408e+001	-1.306043e+001	-1.790930e+002
281250000	-1.411699e+001	-1.043602e+002	-9.004878e-001	-3.981240e+001	-8.124028e-001	-3.873767e+001	-1.310299e+001	-1.792565e+002
281500000	-1.416762e+001	-1.052100e+002	-9.005638e-001	-4.022052e+001	-8.145277e-001	-3.916979e+001	-1.313907e+001	-1.794405e+002
281750000	-1.423789e+001	-1.059177e+002	-8.967999e-001	-4.065005e+001	-8.086684e-001	-3.961649e+001	-1.318782e+001	-1.796068e+002
282000000	-1.430607e+001	-1.071042e+002	-8.901245e-001	-4.106090e+001	-8.055921e-001	-4.002358e+001	-1.322085e+001	-1.798491e+002
282250000	-1.434835e+001	-1.078265e+002	-8.914137e-001	-4.149897e+001	-8.041818e-001	-4.050729e+001	-1.327016e+001	-1.797436e+002
282500000	-1.441544e+001	-1.087638e+002	-8.891691e-001	-4.191367e+001	-7.966564e-001	-4.091329e+001	-1.330068e+001	1.799623e+002
282750000	-1.446225e+001	-1.097853e+002	-8.852091e-001	-4.234252e+001	-7.955015e-001	-4.135755e+001	-1.335099e+001	1.799992e+002
283000000	-1.453274e+001	-1.105283e+002	-8.826983e-001	-4.277778e+001	-7.935706e-001	-4.180933e+001	-1.340416e+001	1.796733e+002
283250000	-1.461249e+001	-1.116416e+002	-8.790401e-001	-4.317447e+001	-7.906886e-001	-4.224883e+001	-1.343708e+001	1.797384e+002
283500000	-1.465524e+001	-1.123361e+002	-8.793527e-001	-4.361792e+001	-7.922903e-001	-4.269563e+001	-1.349109e+001	1.797220e+002
283750000	-1.472105e+001	-1.135768e+002	-8.775527e-001	-4.404128e+001	-7.873655e-001	-4.314960e+001	-1.354765e+001	1.796362e+002
284000000	-1.477127e+001	-1.144037e+002	-8.755952e-001	-4.446883e+001	-7.863925e-001	-4.358646e+001	-1.356743e+001	1.795512e+002
284250000	-1.482013e+001	-1.154934e+002	-8.712663e-001	-4.490241e+001	-7.799192e-001	-4.403923e+001	-1.361676e+001	1.794595e+002
284500000	-1.490292e+001	-1.163609e+002	-8.667321e-001	-4.531662e+001	-7.782598e-001	-4.448245e+001	-1.369336e+001	1.792383e+002
284750000	-1.494138e+001	-1.172921e+002	-8.684092e-001	-4.574798e+001	-7.818232e-001	-4.491222e+001	-1.369032e+001	1.792478e+002
285000000	-1.498182e+001	-1.184578e+002	-8.659973e-001	-4.615858e+001	-7.761982e-001	-4.538447e+001	-1.376135e+001	1.791639e+002
285250000	-1.506892e+001	-1.194383e+002	-8.637522e-001	-4.660166e+001	-7.792848e-001	-4.579606e+001	-1.378811e+001	1.791215e+002
285500000	-1.512166e+001	-1.206328e+002	-8.604055e-001	-4.702286e+001	-7.719899e-001	-4.626959e+001	-1.383088e+001	1.789634e+002
285750000	-1.519515e+001	-1.218879e+002	-8.585949e-001	-4.742311e+001	-7.702949e-001	-4.669752e+001	-1.389874e+001	1.789458e+002
286000000	-1.522072e+001	-1.226080e+002	-8.543882e-001	-4.787949e+001	-7.679730e-001	-4.714674e+001	-1.394092e+001	1.789508e+002
286250000	-1.529051e+001	-1.238494e+002	-8.509190e-001	-4.830019e+001	-7.688366e-001	-4.758756e+001	-1.397880e+001	1.788923e+002
286500000	-1.534524e+001	-1.250617e+002	-8.497674e-001	-4.871615e+001	-7.646204e-001	-4.803069e+001	-1.402494e+001	1.788081e+002
286750000	-1.540498e+001	-1.259817e+002	-8.457694e-001	-4.915301e+001	-7.681547e-001	-4.847954e+001	-1.406382e+001	1.788869e+002
287000000	-1.543354e+001	-1.269121e+002	-8.456856e-001	-4.961306e+001	-7.638441e-001	-4.894286e+001	-1.410895e+001	1.790061e+002
287250000	-1.549816e+001	-1.281841e+002	-8.443951e-001	-5.001328e+001	-7.658199e-001	-4.937946e+001	-1.415625e+001	1.787307e+002
287500000	-1.557751e+001	-1.294356e+002	-8.391056e-001	-5.042338e+001	-7.604591e-001	-4.982970e+001	-1.417359e+001	1.788424e+002
287750000	-1.559393e+001	-1.305195e+002	-8.376238e-001	-5.087228e+001	-7.604001e-001	-5.028551e+001	-1.423360e+001	1.789066e+002
288000000	-1.561090e+001	-1.317974e+002	-8.372781e-001	-5.129196e+001	-7.594080e-001	-5.073962e+001	-1.426606e+001	1.790806e+002
288250000	-1.567127e+001	-1.327203e+002	-8.331363e-001	-5.174259e+001	-7.601964e-001	-5.116402e+001	-1.431111e+001	1.789967e+002
288500000	-1.576794e+001	-1.340973e+002	-8.280569e-001	-5.217708e+001	-7.580414e-001	-5.162650e+001	-1.435640e+001	1.790400e+002
288750000	-1.578223e+001	-1.352067e+002	-8.259118e-001	-5.260607e+001	-7.569884e-001	-5.209228e+001	-1.440225e+001	1.791402e+002
289000000	-1.581982e+001	-1.365456e+002	-8.231018e-001	-5.302991e+001	-7.556207e-001	-5.253095e+001	-1.441534e+001	1.790941e+002
289250000	-1.586218e+001	-1.378877e+002	-8.211219e-001	-5.344163e+001	-7.524700e-001	-5.296929e+001	-1.449833e+001	1.791305e+002
289500000	-1.587709e+001	-1.389058e+002	-8.209250e-001	-5.391211e+001	-7.527954e-001	-5.344848e+001	-1.453289e+001	1.790436e+002
289750000	-1.598211e+001	-1.402931e+002	-8.158855e-001	-5.432739e+001	-7.532212e-001	-5.390773e+001	-1.457443e+001	1.794149e+002
290000000	-1.595198e+001	-1.417047e+002	-8.126502e-001	-5.476544e+001	-7.530258e-001	-5.431880e+001	-1.461627e+001	1.793691e+002
290250000	-1.602575e+001	-1.428432e+002	-8.091767e-001	-5.518653e+001	-7.497545e-001	-5.479812e+001	-1.463359e+001	1.795267e+002
290500000	-1.604079e+001	-1.441508e+002	-8.051899e-001	-5.566196e+001	-7.473102e-001	-5.526042e+001	-1.469940e+001	1.795302e+002
290750000	-1.607389e+001	-1.452479e+002	-8.071581e-001	-5.608463e+001	-7.506741e-001	-5.569054e+001	-1.471818e+001	1.796294e+002
291000000	-1.606811e+001	-1.467588e+002	-8.053990e-001	-5.650068e+001	-7.474985e-001	-5.616222e+001	-1.476529e+001	1.799461e+002
291250000	-1.613623e+001	-1.480268e+002	-8.016328e-001	-5.695073e+001	-7.464051e-001	-5.661386e+001	-1.478247e+001	1.798187e+002
291500000	-1.616244e+001	-1.494860e+002	-7.968169e-001	-5.740316e+001	-7.449011e-001	-5.706557e+001	-1.482055e+001	1.799484e+002
291750000	-1.621185e+001	-1.505167e+002	-7.946040e-001	-5.787033e+001	-7.473522e-001	-5.753981e+001	-1.489601e+001	-1.796268e+002
292000000	-1.618749e+001	-1.521081e+002	-7.965203e-001	-5.831000e+001	-7.442831e-001	-5.798822e+001	-1.494753e+001	-1.795168e+002
292250000	-1.621901e+001	-1.533755e+002	-7.933560e-001	-5.876738e+001	-7.463704e-001	-5.844360e+001	-1.493663e+001	-1.793924e+002
292500000	-1.618063e+001	-1.544760e+002	-7.901557e-001	-5.919079e+001	-7.495015e-001	-5.890725e+001	-1.496930e+001	-1.791598e+002
292750000	-1.621795e+001	-1.558733e+002	-7.877975e-001	-5.963590e+001	-7.452711e-001	-5.936222e+001	-1.501610e+001	-1.791294e+002
293000000	-1.619451e+001	-1.574014e+002	-7.864083e-001	-6.010648e+001	-7.463556e-001	-5.980534e+001	-1.501120e+001	-1.792095e+002
293250000	-1.623469e+001	-1.587601e+002	-7.809199e-001	-6.053467e+001	-7.473146e-001	-6.029280e+001	-1.504656e+001	-1.787914e+002
293500000	-1.622639e+001	-1.599108e+002	-7.802808e-001	-6.099923e+001	-7.485248e-001	-6.074928e+001	-1.511146e+001	-1.785618e+002
293750000	-1.622568e+001	-1.615339e+002	-7.763216e-001	-6.145617e+001	-7.456511e-001	-6.120064e+001	-1.510683e+001	-1.782717e+002
294000000	-1.625626e+001	-1.628788e+002	-7.699920e-001	-6.187654e+001	-7.480528e-001	-6.168566e+001	-1.513950e+001	-1.781039e+002
294250000	-1.621843e+001	-1.642056e+002	-7.716492e-001	-6.234341e+001	-7.479349e-001	-6.213208e+001	-1.517204e+001	-1.781907e+002
294500000	-1.621284e+001	-1.656755e+002	-7.711779e-001	-6.278305e+001	-7.477880e-001	-6.260169e+001	-1.518901e+001	-1.778039e+002
294750000	-1.617025e+001	-1.671455e+002	-7.698315e-001	-6.325573e+001	-7.470943e-001	-6.306089e+001	-1.522455e+001	-1.776057e+002
295000000	-1.618724e+001	-1.685717e+002	-7.665187e-001	-6.369569e+001	-7.489704e-001	-6.353397e+001	-1.522098e+001	-1.774917e+002
295250000	-1.614465e+001	-1.699155e+002	-7.631707e-001	-6.414752e+001	-7.504151e-001	-6.398494e+001	-1.525297e+001	-1.773138e+002
295500000	-1.613864e+001	-1.712332e+002	-7.608521e-001	-6.460225e+001	-7.504834e-001	-6.445853e+001	-1.527956e+001	-1.771226e+002
295750000	-1.607417e+001	-1.727873e+002	-7.537392e-001	-6.505557e+001	-7.511129e-001	-6.492056e+001	-1.525973e+001	-1.769037e+002
296000000	-1.605436e+001	-1.739789e+002	-7.583331e-001	-6.552883e+001	-7.516110e-001	-6.539494e+001	-1.530044e+001	-1.764909e+002
296250000	-1.603872e+001	-1.754705e+002	-7.533644e-001	-6.598601e+001	-7.510097e-001	-6.586544e+001	-1.531519e+001	-1.763963e+002
296500000	-1.601169e+001	-1.768005e+002	-7.524059e-001	-6.642597e+001	-7.568384e-001	-6.633050e+001	-1.528819e+001	-1.761022e+002
296750000	-1.598592e+001	-1.783500e+002	-7.502040e-001	-6.688354e+001	-7.556282e-001	-6.679230e+001	-1.530637e+001	-1.758837e+002
297000000	-1.591611e+001	-1.795254e+002	-7.508770e-001	-6.735095e+001	-7.565329e-001	-6.725674e+001	-1.531677e+001	-1.755502e+002
297250000	-1.586294e+001	1.791132e+002	-7.464267e-001	-6.778907e+001	-7.569234e-001	-6.775507e+001	-1.532567e+001	-1.754173e+002
297500000	-1.582634e+001	1.779701e+002	-7.457030e-001	-6.828048e+001	-7.571115e-001	-6.820957e+001	-1.530147e+001	-1.751675e+002
297750000	-1.575751e+001	1.764898e+002	-7.440054e-001	-6.874989e+001	-7.611070e-001	-6.868859e+001	-1.532691e+001	-1.749253e+002
298000000	-1.573292e+001	1.750348e+002	-7.423833e-001	-6.921334e+001	-7.633276e-001	-6.914379e+001	-1.528990e+001	-1.746214e+002
298250000	-1.566844e+001	1.739711e+002	-7.435397e-001	-6.968030e+001	-7.609052e-001	-6.961700e+001	-1.532638e+001	-1.743770e+002
298500000	-1.561970e+001	1.728064e+002	-7.393015e-001	-7.013497e+001	-7.640860e-001	-7.007051e+001	-1.530675e+001	-1.742588e+002
298750000	-1.555838e+001	1.714890e+002	-7.365904e-001	-7.061400e+001	-7.668068e-001	-7.055555e+001	-1.530692e+001	-1.740244e+002
299000000	-1.549241e+001	1.700524e+002	-7.384110e-001	-7.105522e+001	-7.691576e-001	-7.105070e+001	-1.528694e+001	-1.737202e+002
299250000	-1.539511e+001	1.685719e+002	-7.344642e-001	-7.151403e+001	-7.713819e-001	-7.154535e+001	-1.529061e+001	-1.734714e+002
299500000	-1.540100e+001	1.676323e+002	-7.339040e-001	-7.201517e+001	-7.751537e-001	-7.200743e+001	-1.522491e+001	-1.733183e+002
299750000	-1.530514e+001	1.663703e+002	-7.351994e-001	-7.245934e+001	-7.777920e-001	-7.247900e+001	-1.521357e+001	-1.730814e+002
300000000	-1.522615e+001	1.650526e+002	-7.343256e-001	-7.293803e+001	-7.777589e-001	-7.294693e+001	-1.521115e+001	-1.728444e+002
300250000	-1.517068e+001	1.639427e+002	-7.310117e-001	-7.342532e+001	-7.793216e-001	-7.343516e+001	-1.523702e+001	-1.727071e+002
300500000	-1.508241e+001	1.626791e+002	-7.332226e-001	-7.388790e+001	-7.811377e-001	-7.389749e+001	-1.516719e+001	-1.724778e+002
300750000	-1.500148e+001	1.617069e+002	-7.321961e-001	-7.438710e+001	-7.854629e-001	-7.440025e+001	-1.516808e+001	-1.721919e+002
301000000	-1.493413e+001	1.603725e+002	-7.317028e-001	-7.484357e+001	-7.889053e-001	-7.486780e+001	-1.512712e+001	-1.721163e+002
301250000	-1.489205e+001	1.591323e+002	-7.320563e-001	-7.532771e+001	-7.913553e-001	-7.534909e+001	-1.510336e+001	-1.717810e+002
301500000	-1.480200e+001	1.579643e+002	-7.294797e-001	-7.582150e+001	-7.924613e-001	-7.582709e+001	-1.506822e+001	-1.717885e+002
301750000	-1.470891e+001	1.569911e+002	-7.323919e-001	-7.630784e+001	-7.959145e-001	-7.632722e+001	-1.506193e+001	-1.715245e+002
302000000	-1.464469e+001	1.558421e+002	-7.264228e-001	-7.678730e+001	-8.010802e-001	-7.680455e+001	-1.500666e+001	-1.714079e+002
302250000	-1.457168e+001	1.546595e+002	-7.278904e-001	-7.727609e+001	-8.024082e-001	-7.729021e+001	-1.498790e+001	-1.709681e+002
302500000	-1.445565e+001	1.535191e+002	-7.279328e-001	-7.775075e+001	-8.068818e-001	-7.775502e+001	-1.492454e+001	-1.711166e+002
302750000	-1.440276e+001	1.523977e+002	-7.261857e-001	-7.824643e+001	-8.063559e-001	-7.825417e+001	-1.492458e+001	-1.711701e+002
303000000	-1.431830e+001	1.514164e+002	-7.278058e-001	-7.874583e+001	-8.118230e-001	-7.875297e+001	-1.487313e+001	-1.708594e+002
303250000	-1.423671e+001	1.502052e+002	-7.270727e-001	-7.921412e+001	-8.144197e-001	-7.925869e+001	-1.484670e+001	-1.707350e+002
303500000	-1.412584e+001	1.492542e+002	-7.290679e-001	-7.973321e+001	-8.209537e-001	-7.972192e+001	-1.477033e+001	-1.707880e+002
303750000	-1.409198e+001	1.484700e+002	-7.309813e-001	-8.023264e+001	-8.224085e-001	-8.020863e+001	-1.476434e+001	-1.705169e+002
304000000	-1.397764e+001	1.471651e+002	-7.289069e-001	-8.073205e+001	-8.249732e-001	-8.069722e+001	-1.469318e+001	-1.705078e+002
304250000	-1.389197e+001	1.461121e+002	-7.270749e-001	-8.122327e+001	-8.304689e-001	-8.118413e+001	-1.463547e+001	-1.705277e+002
304500000	-1.383299e+001	1.452602e+002	-7.305522e-001	-8.173580e+001	-8.295526e-001	-8.168867e+001	-1.460281e+001	-1.703610e+002
304750000	-1.371402e+001	1.442159e+002	-7.320607e-001	-8.224634e+001	-8.351340e-001	-8.218210e+001	-1.453705e+001	-1.702892e+002
305000000	-1.361156e+001	1.434102e+002	-7.317549e-001	-8.273557e+001	-8.414121e-001	-8.267536e+001	-1.450146e+001	-1.701550e+002
305250000	-1.352497e+001	1.422513e+002	-7.344866e-001	-8.322874e+001	-8.443058e-001	-8.316097e+001	-1.444741e+001	-1.701923e+002
305500000	-1.343982e+001	1.413945e+002	-7.353494e-001	-8.374286e+001	-8.480646e-001	-8.366715e+001	-1.440522e+001	-1.703279e+002
305750000	-1.336850e+001	1.405691e+002	-7.365111e-001	-8.425168e+001	-8.516788e-001	-8.414764e+001	-1.433154e+001	-1.700474e+002
306000000	-1.328029e+001	1.396480e+002	-7.403049e-001	-8.476683e+001	-8.569656e-001	-8.466395e+001	-1.429673e+001	-1.701319e+002
306250000	-1.318652e+001	1.385270e+002	-7.414107e-001	-8.527035e+001	-8.615622e-001	-8.517344e+001	-1.421777e+001	-1.700263e+002
306500000	-1.309033e+001	1.376948e+002	-7.412416e-001	-8.574471e+001	-8.663720e-001	-8.566226e+001	-1.416095e+001	-1.701680e+002
306750000	-1.300381e+001	1.368353e+002	-7.414064e-001	-8.627052e+001	-8.708152e-001	-8.615643e+001	-1.411383e+001	-1.702170e+002
307000000	-1.290925e+001	1.360762e+002	-7.429036e-001	-8.679328e+001	-8.758400e-001	-8.666323e+001	-1.403684e+001	-1.703685e+002
307250000	-1.283938e+001	1.352766e+002	-7.470309e-001	-8.730061e+001	-8.783021e-001	-8.717535e+001	-1.400827e+001	-1.704942e+002
307500000	-1.274667e+001	1.344072e+002	-7.515527e-001	-8.782693e+001	-8.831891e-001	-8.767516e+001	-1.393972e+001	-1.704917e+002
307750000	-1.268001e+001	1.336214e+002	-7.493625e-001	-8.832767e+001	-8.865023e-001	-8.819056e+001	-1.390081e+001	-1.706134e+002
308000000	-1.258929e+001	1.326834e+002	-7.566781e-001	-8.885381e+001	-8.944204e-001	-8.868660e+001	-1.380125e+001	-1.706611e+002
308250000	-1.247999e+001	1.319097e+002	-7.546384e-001	-8.936907e+001	-8.975217e-001	-8.922255e+001	-1.374150e+001	-1.706737e+002
308500000	-1.241007e+001	1.311242e+002	-7.559378e-001	-8.985713e+001	-9.057665e-001	-8.970567e+001	-1.368704e+001	-1.710072e+002
308750000	-1.230303e+001	1.302737e+002	-7.609690e-001	-9.039682e+001	-9.108420e-001	-9.020938e+001	-1.360811e+001	-1.712350e+002
309000000	-1.220917e+001	1.297097e+002	-7.658560e-001	-9.093745e+001	-9.160820e-001	-9.074256e+001	-1.354724e+001	-1.713388e+002
309250000	-1.215066e+001	1.290366e+002	-7.687746e-001	-9.145835e+001	-9.184947e-001	-9.121977e+001	-1.346837e+001	-1.713306e+002
309500000	-1.205093e+001	1.280755e+002	-7.707403e-001	-9.196771e+001	-9.248154e-001	-9.177244e+001	-1.343655e+001	-1.716853e+002
309750000	-1.197935e+001	1.273547e+002	-7.712208e-001	-9.249045e+001	-9.316386e-001	-9.226716e+001	-1.332386e+001	-1.720273e+002
310000000	-1.189496e+001	1.268423e+002	-7.800131e-001	-9.299651e+001	-9.352908e-001	-9.277742e+001	-1.328315e+001	-1.718748e+002
310250000	-1.179253e+001	1.259622e+002	-7.818824e-001	-9.353657e+001	-9.423686e-001	-9.331493e+001	-1.319916e+001	-1.724572e+002
310500000	-1.169784e+001	1.252533e+002	-7.854020e-001	-9.405867e+001	-9.492133e-001	-9.383431e+001	-1.314515e+001	-1.726199e+002
310750000	-1.163894e+001	1.245999e+002	-7.899180e-001	-9.460197e+001	-9.538364e-001	-9.436710e+001	-1.307732e+001	-1.727259e+002
311000000	-1.153604e+001	1.240240e+002	-7.936288e-001	-9.514348e+001	-9.610873e-001	-9.487702e+001	-1.299864e+001	-1.730784e+002
311250000	-1.148737e+001	1.230940e+002	-7.943199e-001	-9.568583e+001	-9.650618e-001	-9.539228e+001	-1.296382e+001	-1.731973e+002
311500000	-1.138095e+001	1.226172e+002	-8.005972e-001	-9.622146e+001	-9.715455e-001	-9.592858e+001	-1.286565e+001	-1.737004e+002
311750000	-1.131766e+001	1.218355e+002	-8.058214e-001	-9.676331e+001	-9.794205e-001	-9.645227e+001	-1.280957e+001	-1.738290e+002
312000000	-1.122242e+001	1.212788e+002	-8.111154e-001	-9.729148e+001	-9.874397e-001	-9.698653e+001	-1.272856e+001	-1.741453e+002
312250000	-1.114495e+001	1.206566e+002	-8.124870e-001	-9.784538e+001	-9.941307e-001	-9.751181e+001	-1.267098e+001	-1.745444e+002
